
**** 11/08/21 14:02:34 ******* PSpice Lite (March 2016) ******* ID# 10813 ****

 ** Profile: "SCHEMATIC1-nodal"  [ D:\College Work\Year 1 Semester 1 (Sem 1)\Electrical Lab\Experiment 2\experiment2-PSpiceFiles\SCHE


 ****     CIRCUIT DESCRIPTION


******************************************************************************




** Creating circuit file "nodal.cir" 
** WARNING: THIS AUTOMATICALLY GENERATED FILE MAY BE OVERWRITTEN BY SUBSEQUENT SIMULATIONS

*Libraries: 
* Profile Libraries :
* Local Libraries :
* From [PSPICE NETLIST] section of C:\Users\Abhinav Srivatsa\AppData\Roaming\SPB_Data\cdssetup\OrCAD_PSpice\17.2.0\PSpice.ini file:
.lib "nomd.lib" 

*Analysis directives: 
.OPTIONS ADVCONV
.PROBE64 V(alias(*)) I(alias(*)) W(alias(*)) D(alias(*)) NOISE(alias(*)) 
.INC "..\SCHEMATIC1.net" 



**** INCLUDING SCHEMATIC1.net ****
* source EXPERIMENT2
R_R1         N00527 N00537  4 TC=0,0 
V_V1         N00537 N00543 6
I_I2         0 N00527 DC 1  
R_R2         N00527 N00601  6 TC=0,0 
R_R4         0 N00601  3 TC=0,0 
R_R3         N00601 N00543  2 TC=0,0 
I_I1         0 N00543 DC 2  

**** RESUMING nodal.cir ****
.END

**** 11/08/21 14:02:34 ******* PSpice Lite (March 2016) ******* ID# 10813 ****

 ** Profile: "SCHEMATIC1-nodal"  [ D:\College Work\Year 1 Semester 1 (Sem 1)\Electrical Lab\Experiment 2\experiment2-PSpiceFiles\SCHE


 ****     SMALL SIGNAL BIAS SOLUTION       TEMPERATURE =   27.000 DEG C


******************************************************************************



 NODE   VOLTAGE     NODE   VOLTAGE     NODE   VOLTAGE     NODE   VOLTAGE


(N00527)   17.0000 (N00537)   18.3330 (N00543)   12.3330 (N00601)    9.0000 




    VOLTAGE SOURCE CURRENTS
    NAME         CURRENT

    V_V1        -3.333E-01

    TOTAL POWER DISSIPATION   2.00E+00  WATTS



          JOB CONCLUDED

**** 11/08/21 14:02:34 ******* PSpice Lite (March 2016) ******* ID# 10813 ****

 ** Profile: "SCHEMATIC1-nodal"  [ D:\College Work\Year 1 Semester 1 (Sem 1)\Electrical Lab\Experiment 2\experiment2-PSpiceFiles\SCHE


 ****     JOB STATISTICS SUMMARY


******************************************************************************



  Total job time (using Solver 1)   =        0.00
